Index       TIME              V(A)             V(OUT)           V(XFO4:B)         V(XFO4:C)         V(XFO4:D)         V(XFO4:E)    
0        0.00000000e+00    0.00000000e+00    1.80000000e+00    1.79999999e+00    3.81766256e-07    1.80000000e+00    1.39320512e-07
1        1.00000000e-13    3.60000000e-03    1.80000008e+00    1.80023079e+00    9.70203354e-06    1.80000101e+00    2.36264082e-07
2        3.00000000e-13    1.08000000e-02    1.80000018e+00    1.80068926e+00    2.77302373e-05    1.80000276e+00    3.63685528e-07
3        7.00000000e-13    2.52000000e-02    1.80000033e+00    1.80160213e+00    6.31532627e-05    1.80000607e+00    5.81187625e-07
4        1.50000000e-12    5.40000000e-02    1.80000048e+00    1.80340512e+00    1.30538652e-04    1.80001207e+00    9.08826505e-07
5        3.10000000e-12    1.11600000e-01    1.80000055e+00    1.80692750e+00    2.52645192e-04    1.80002240e+00    1.33986109e-06
6        6.30000000e-12    2.26800000e-01    1.80000032e+00    1.81370059e+00    4.54012120e-04    1.80003738e+00    1.66933203e-06
7        1.27000000e-11    4.57200000e-01    1.79999992e+00    1.82676352e+00    7.40183578e-04    1.80005268e+00    1.50533387e-06
8        2.55000000e-11    9.18000000e-01    1.79999943e+00    1.83160467e+00    4.60250561e-04    1.80001030e+00   -1.09962620e-06
9        2.70314702e-11    9.73132929e-01    1.79999924e+00    1.82715580e+00    2.58773464e-04    1.79999216e+00   -1.89278016e-06
10       2.85629405e-11    1.02826586e+00    1.79999904e+00    1.82136426e+00    1.50834382e-05    1.79997128e+00   -2.77702292e-06
11       3.16258810e-11    1.13853172e+00    1.79999857e+00    1.80142675e+00   -7.29244796e-04    1.79991122e+00   -5.12349192e-06
12       3.46888215e-11    1.24879757e+00    1.79999829e+00    1.77030917e+00   -1.76849401e-03    1.79983289e+00   -7.68767748e-06
13       3.77517620e-11    1.35906343e+00    1.79999802e+00    1.72623648e+00   -3.13607496e-03    1.79973527e+00   -1.05513360e-05
14       4.08147025e-11    1.46932929e+00    1.79999803e+00    1.67004782e+00   -4.78008789e-03    1.79962518e+00   -1.31807980e-05
15       4.38776429e-11    1.57959515e+00    1.79999807e+00    1.60245535e+00   -6.68905708e-03    1.79950464e+00   -1.56608019e-05
16       4.69405834e-11    1.68986100e+00    1.79999812e+00    1.52390597e+00   -8.90293583e-03    1.79937162e+00   -1.81018238e-05
17       5.00000000e-11    1.80000000e+00    1.79999798e+00    1.43505510e+00   -1.14973878e-02    1.79922082e+00   -2.08685236e-05
18       5.03062940e-11    1.80000000e+00    1.79999788e+00    1.42521272e+00   -1.17996772e-02    1.79920290e+00   -2.12918235e-05
19       5.05819587e-11    1.80000000e+00    1.79999784e+00    1.41637193e+00   -1.20712294e-02    1.79918709e+00   -2.16154912e-05
20       5.11332880e-11    1.80000000e+00    1.79999780e+00    1.39872628e+00   -1.26157720e-02    1.79915570e+00   -2.22180927e-05
21       5.22359466e-11    1.80000000e+00    1.79999789e+00    1.36361714e+00   -1.37013274e-02    1.79909526e+00   -2.31405900e-05
22       5.44412637e-11    1.80000000e+00    1.79999834e+00    1.29412436e+00   -1.58585935e-02    1.79898289e+00   -2.42216875e-05
23       5.88518980e-11    1.80000000e+00    1.79999981e+00    1.15790480e+00   -1.99495908e-02    1.79880313e+00   -2.35799026e-05
24       6.76731666e-11    1.80000000e+00    1.80000535e+00    8.95192965e-01   -2.41337141e-02    1.79882895e+00   -7.07011089e-06
25       7.64944353e-11    1.80000000e+00    1.80001388e+00    6.44238638e-01   -1.51210749e-02    1.79986066e+00    3.93505624e-05
26       8.53157039e-11    1.80000000e+00    1.80002427e+00    4.13260802e-01    1.83615765e-02    1.80257512e+00    1.23968378e-04
27       9.41369725e-11    1.80000000e+00    1.80002320e+00    2.32747185e-01    7.96596501e-02    1.80675671e+00    2.12791840e-04
28       1.01377861e-10    1.80000000e+00    1.80001579e+00    1.35232683e-01    1.46586893e-01    1.81073056e+00    2.64804793e-04
29       1.07894661e-10    1.80000000e+00    1.80000813e+00    8.04415408e-02    2.14951160e-01    1.81434295e+00    2.89313678e-04
30       1.14411460e-10    1.80000000e+00    1.80000217e+00    4.71986552e-02    2.87523717e-01    1.81781803e+00    2.96739454e-04
31       1.20928260e-10    1.80000000e+00    1.79999893e+00    2.77376878e-02    3.61996607e-01    1.82112585e+00    2.94035555e-04
32       1.33961859e-10    1.80000000e+00    1.79999793e+00    9.44497578e-03    5.10902935e-01    1.82747870e+00    2.83437304e-04
33       1.46995458e-10    1.80000000e+00    1.79999502e+00    4.21049600e-03    6.55423004e-01    1.83321894e+00    2.59032724e-04
34       1.60029058e-10    1.80000000e+00    1.79995298e+00    2.69298094e-03    7.92561706e-01    1.83303253e+00    4.49179376e-05
35       1.73062657e-10    1.80000000e+00    1.79984839e+00    2.19828522e-03    9.21194528e-01    1.81349026e+00   -6.84230643e-04
36       1.86096256e-10    1.80000000e+00    1.79974593e+00    2.00806457e-03    1.04134944e+00    1.76149483e+00   -1.99345781e-03
37       1.99129855e-10    1.80000000e+00    1.79961810e+00    2.03532669e-03    1.15826357e+00    1.66565470e+00   -3.98937604e-03
38       2.10860095e-10    1.80000000e+00    1.79953790e+00    2.20668647e-03    1.25603540e+00    1.54321789e+00   -6.26125064e-03
39       2.22590334e-10    1.80000000e+00    1.79939765e+00    2.48274784e-03    1.34236284e+00    1.39528703e+00   -9.18666527e-03
40       2.34320573e-10    1.80000000e+00    1.79924143e+00    2.72890788e-03    1.41682560e+00    1.23229857e+00   -1.29058699e-02
41       2.46050813e-10    1.80000000e+00    1.79973309e+00    2.81072531e-03    1.48014755e+00    1.06091281e+00   -1.47234252e-02
42       2.57781052e-10    1.80000000e+00    1.80246869e+00    2.70751827e-03    1.53313815e+00    8.82799858e-01   -5.78789577e-03
43       2.69511291e-10    1.80000000e+00    1.80878405e+00    2.47398250e-03    1.57695690e+00    6.99055148e-01    2.96478327e-02
44       2.81241531e-10    1.80000000e+00    1.82034324e+00    2.14864557e-03    1.61213024e+00    5.06195645e-01    1.12556551e-01
45       2.91572927e-10    1.80000000e+00    1.83419939e+00    1.78115990e-03    1.63557057e+00    3.40734509e-01    2.33888332e-01
46       3.00871184e-10    1.80000000e+00    1.85018665e+00    1.47968593e-03    1.65227682e+00    2.18214115e-01    3.79456193e-01
47       3.09239615e-10    1.80000000e+00    1.86858249e+00    1.34952662e-03    1.66686198e+00    1.39852859e-01    5.30759150e-01
48       3.17608046e-10    1.80000000e+00    1.88641570e+00    1.30554578e-03    1.68162053e+00    8.85228905e-02    6.88234321e-01
49       3.19024722e-10    1.80000000e+00    1.88745875e+00    1.30265529e-03    1.68412905e+00    8.23204315e-02    7.14430337e-01
50       3.21858073e-10    1.80000000e+00    1.88430174e+00    1.29533642e-03    1.68908604e+00    7.07813378e-02    7.64888211e-01
51       3.24691424e-10    1.80000000e+00    1.86879967e+00    1.28590936e-03    1.69395734e+00    6.08667920e-02    8.11111441e-01
52       3.27524775e-10    1.80000000e+00    1.83728796e+00    1.27377389e-03    1.69872566e+00    5.23424871e-02    8.52725586e-01
53       3.30358126e-10    1.80000000e+00    1.78783412e+00    1.25892061e-03    1.70338153e+00    4.50731873e-02    8.90948000e-01
54       3.33191477e-10    1.80000000e+00    1.72312486e+00    1.24188849e-03    1.70792564e+00    3.89940869e-02    9.28111433e-01
55       3.33632968e-10    1.80000000e+00    1.70880825e+00    1.23928641e-03    1.70862640e+00    3.82028361e-02    9.34612024e-01
56       3.34074458e-10    1.80000000e+00    1.69249813e+00    1.23673468e-03    1.70932684e+00    3.74343048e-02    9.41311592e-01
57       3.34957438e-10    1.80000000e+00    1.65172111e+00    1.23133641e-03    1.71071734e+00    3.59609311e-02    9.54756714e-01
58       3.35840419e-10    1.80000000e+00    1.60151108e+00    1.22564297e-03    1.71209513e+00    3.45786050e-02    9.68233118e-01
59       3.36723399e-10    1.80000000e+00    1.54425717e+00    1.21945760e-03    1.71345684e+00    3.32574498e-02    9.81369367e-01
60       3.38489360e-10    1.80000000e+00    1.41417988e+00    1.20582138e-03    1.71613278e+00    3.07898328e-02    1.00648474e+00
61       3.42021282e-10    1.80000000e+00    1.10853713e+00    1.17408297e-03    1.72129241e+00    2.64748668e-02    1.05240923e+00
62       3.45553204e-10    1.80000000e+00    7.60812244e-01    1.13794413e-03    1.72620464e+00    2.29579008e-02    1.09412734e+00
63       3.49085127e-10    1.80000000e+00    4.03911844e-01    1.09903315e-03    1.73088064e+00    2.02065840e-02    1.13370915e+00
64       3.49503031e-10    1.80000000e+00    3.63857809e-01    1.09424917e-03    1.73141662e+00    1.99306521e-02    1.13825281e+00
65       3.50338839e-10    1.80000000e+00    2.88618609e-01    1.08454457e-03    1.73248052e+00    1.93835186e-02    1.14707085e+00
66       3.52010455e-10    1.80000000e+00    1.73728496e-01    1.06457344e-03    1.73456437e+00    1.83462082e-02    1.16372755e+00
67       3.53490687e-10    1.80000000e+00    1.09065722e-01    1.04760074e-03    1.73638167e+00    1.76679857e-02    1.17986261e+00
68       3.54970919e-10    1.80000000e+00    7.03954119e-02    1.03193538e-03    1.73818475e+00    1.73199827e-02    1.19893523e+00
69       3.56451150e-10    1.80000000e+00    4.84973624e-02    1.01717461e-03    1.73996963e+00    1.72625765e-02    1.22030299e+00
70       3.57931382e-10    1.80000000e+00    3.63954335e-02    1.00277430e-03    1.74172935e+00    1.74311125e-02    1.24295043e+00
71       3.60891845e-10    1.80000000e+00    2.47921954e-02    9.73796922e-04    1.74515511e+00    1.82519164e-02    1.28912942e+00
72       3.63852308e-10    1.80000000e+00    2.00445273e-02    9.43972068e-04    1.74844562e+00    1.95823160e-02    1.33451234e+00
73       3.69773234e-10    1.80000000e+00    1.42184828e-02    8.79393841e-04    1.75456420e+00    2.29566624e-02    1.41862307e+00
74       3.75694161e-10    1.80000000e+00    1.04968106e-02    8.05712393e-04    1.75998646e+00    2.60907255e-02    1.49221706e+00
75       3.81615087e-10    1.80000000e+00    7.84388981e-03    7.24111248e-04    1.76467182e+00    2.79103945e-02    1.55459993e+00
76       3.87536013e-10    1.80000000e+00    5.95682777e-03    6.39970492e-04    1.76866746e+00    2.81135850e-02    1.60620448e+00
77       3.93456939e-10    1.80000000e+00    4.53945158e-03    5.59217149e-04    1.77207053e+00    2.69089613e-02    1.64808903e+00
78       3.99377866e-10    1.80000000e+00    3.48237989e-03    4.86051734e-04    1.77498974e+00    2.47141458e-02    1.68160973e+00
79       4.05298792e-10    1.80000000e+00    2.66485295e-03    4.22496339e-04    1.77752363e+00    2.19587768e-02    1.70814165e+00
80       4.17140645e-10    1.80000000e+00    1.55369484e-03    3.23475845e-04    1.78175617e+00    1.61637497e-02    1.74561917e+00
81       4.40824350e-10    1.80000000e+00    4.78616488e-04    2.03143743e-04    1.78800349e+00    7.06878937e-03    1.78281115e+00
82       4.64508055e-10    1.80000000e+00    1.52312983e-04    1.38633552e-04    1.79224713e+00    2.46629439e-03    1.79464433e+00
83       4.88191760e-10    1.80000000e+00    4.37027182e-05    9.38981833e-05    1.79511568e+00    8.24560589e-04    1.79833744e+00
84       5.00000000e-10    1.80000000e+00    2.95765654e-05    7.59459011e-05    1.79613451e+00    5.00596411e-04    1.79902998e+00
85       5.00952372e-10    1.76571459e+00    2.63474255e-05   -1.72258066e-03    1.79610693e+00    4.77165192e-04    1.79906811e+00
86       5.01749433e-10    1.73702042e+00    2.50116602e-05   -3.13729110e-03    1.79608976e+00    4.58845374e-04    1.79909968e+00
87       5.03343553e-10    1.67963209e+00    2.32290969e-05   -5.80924106e-03    1.79606496e+00    4.24049597e-04    1.79916079e+00
88       5.06531794e-10    1.56485542e+00    2.02940756e-05   -1.03963886e-02    1.79606023e+00    3.64087922e-04    1.79927121e+00
89       5.12908276e-10    1.33530207e+00    1.53146945e-05   -1.82651967e-02    1.79612474e+00    2.71364107e-04    1.79945163e+00
90       5.25661239e-10    8.76195384e-01    8.67426969e-06   -3.23109194e-02    1.79632728e+00    1.53138797e-04    1.79969371e+00
91       5.27679233e-10    8.03547601e-01    8.00042209e-06   -3.33040546e-02    1.79642171e+00    1.43710273e-04    1.79971922e+00
92       5.31715221e-10    6.58252033e-01    6.85307385e-06   -3.22007844e-02    1.79676938e+00    1.32728199e-04    1.79976663e+00
93       5.39787197e-10    3.67660898e-01    5.15427176e-06   -3.97477053e-03    1.79872740e+00    1.59091217e-04    1.79984321e+00
94       5.47051976e-10    1.06128877e-01    3.93513788e-06    5.57205702e-02    1.80208183e+00    2.26326032e-04    1.79989491e+00
95       5.50000000e-10    0.00000000e+00    3.49410685e-06    8.94351011e-02    1.80385573e+00    2.60525300e-04    1.79991186e+00
96       5.50726478e-10    0.00000000e+00    3.48631184e-06    9.95646860e-02    1.80437904e+00    2.71416218e-04    1.79991593e+00
97       5.51371643e-10    0.00000000e+00    3.38766242e-06    1.08545791e-01    1.80483715e+00    2.80258516e-04    1.79991930e+00
98       5.52661974e-10    0.00000000e+00    3.13765349e-06    1.26482865e-01    1.80574148e+00    2.96525972e-04    1.79992565e+00
99       5.55242636e-10    0.00000000e+00    2.58489521e-06    1.62195649e-01    1.80748210e+00    3.21534847e-04    1.79993650e+00
100      5.60403959e-10    0.00000000e+00    1.74978802e-06    2.32957988e-01    1.81072900e+00    3.49249604e-04    1.79995264e+00
101      5.70726605e-10    0.00000000e+00    8.75136782e-07    3.71652465e-01    1.81655556e+00    3.56553487e-04    1.79997154e+00
102      5.91371899e-10    0.00000000e+00    3.32314784e-07    6.35549768e-01    1.82656429e+00    3.13689488e-04    1.79998696e+00
103      6.12017192e-10    0.00000000e+00   -1.74292820e-06    8.77267608e-01    1.81606783e+00   -2.38110796e-04    1.79995500e+00
104      6.30597955e-10    0.00000000e+00   -3.85308690e-06    1.07321640e+00    1.75238445e+00   -1.86065352e-03    1.79986066e+00
105      6.45686700e-10    0.00000000e+00   -4.22511524e-06    1.21689024e+00    1.64235355e+00   -4.12781856e-03    1.79975438e+00
106      6.58740036e-10    0.00000000e+00   -3.77020505e-06    1.32550252e+00    1.50854928e+00   -6.64190326e-03    1.79966437e+00
107      6.71793373e-10    0.00000000e+00   -6.09290184e-06    1.41768235e+00    1.34877078e+00   -9.96161211e-03    1.79955019e+00
108      6.84846709e-10    0.00000000e+00   -3.06150650e-06    1.49423847e+00    1.17249963e+00   -1.37898814e-02    1.79945088e+00
109      6.97900046e-10    0.00000000e+00    2.73226370e-05    1.55670443e+00    9.85697686e-01   -1.32552793e-02    1.79976706e+00
110      7.10953382e-10    0.00000000e+00    1.07118337e-04    1.60687205e+00    7.91318579e-01    4.03231382e-03    1.80138384e+00
111      7.24006719e-10    0.00000000e+00    2.29862123e-04    1.64653979e+00    5.90945688e-01    5.66711817e-02    1.80530937e+00
112      7.35754721e-10    0.00000000e+00    3.52511500e-04    1.67413129e+00    4.11510184e-01    1.48198384e-01    1.81131241e+00
113      7.46327924e-10    0.00000000e+00    4.22130106e-04    1.69325389e+00    2.71720696e-01    2.67051953e-01    1.81838905e+00
114      7.55843806e-10    0.00000000e+00    4.88638952e-04    1.70782883e+00    1.76805261e-01    3.97748070e-01    1.82589641e+00
115      7.65359689e-10    0.00000000e+00    5.31713871e-04    1.72100280e+00    1.11683170e-01    5.41287044e-01    1.83429412e+00
116      7.74875571e-10    0.00000000e+00    4.21187289e-04    1.73294412e+00    6.99180410e-02    6.88673974e-01    1.84190143e+00
117      7.84391453e-10    0.00000000e+00   -6.83046707e-04    1.74359599e+00    4.43223913e-02    8.32877129e-01    1.83808797e+00
118      7.93907335e-10    0.00000000e+00   -3.16939906e-03    1.75290030e+00    2.90816583e-02    9.70447494e-01    1.80371622e+00
119      8.02471630e-10    0.00000000e+00   -6.00811962e-03    1.76016240e+00    2.11259413e-02    1.09123561e+00    1.73582220e+00
120      8.11035924e-10    0.00000000e+00   -1.05283611e-02    1.76646293e+00    1.71963063e-02    1.21562985e+00    1.62365940e+00
121      8.18743788e-10    0.00000000e+00   -1.46318242e-02    1.77138952e+00    1.61177222e-02    1.31573627e+00    1.49257577e+00
122      8.26451653e-10    0.00000000e+00   -2.13561520e-02    1.77566064e+00    1.64187024e-02    1.40207394e+00    1.34303262e+00
123      8.34159518e-10    0.00000000e+00   -2.84540422e-02    1.77931053e+00    1.67992210e-02    1.47356965e+00    1.18570733e+00
124      8.41867382e-10    0.00000000e+00   -2.66440327e-02    1.78239337e+00    1.67143601e-02    1.53292317e+00    1.02550532e+00
125      8.49575247e-10    0.00000000e+00    1.36003014e-02    1.78498486e+00    1.58879022e-02    1.58042328e+00    8.66218661e-01
126      8.50365767e-10    0.00000000e+00    2.13424156e-02    1.78522329e+00    1.57863980e-02    1.58485627e+00    8.50098945e-01
127      8.51946807e-10    0.00000000e+00    4.09705631e-02    1.78569226e+00    1.55454105e-02    1.59328618e+00    8.18103628e-01
128      8.53527847e-10    0.00000000e+00    7.13623491e-02    1.78614487e+00    1.52822739e-02    1.60131213e+00    7.86645207e-01
129      8.55108887e-10    0.00000000e+00    1.19394058e-01    1.78658185e+00    1.50026563e-02    1.60898431e+00    7.55089070e-01
130      8.56689927e-10    0.00000000e+00    1.89353324e-01    1.78700319e+00    1.46954275e-02    1.61621666e+00    7.23123376e-01
131      8.58270967e-10    0.00000000e+00    2.76504671e-01    1.78741031e+00    1.43791903e-02    1.62313905e+00    6.91440415e-01
132      8.59852007e-10    0.00000000e+00    3.76894354e-01    1.78780350e+00    1.40492299e-02    1.62972052e+00    6.60178574e-01
133      8.61433047e-10    0.00000000e+00    4.88523445e-01    1.78818348e+00    1.37119045e-02    1.63600422e+00    6.29411557e-01
134      8.63014087e-10    0.00000000e+00    6.09683935e-01    1.78855042e+00    1.33612399e-02    1.64195247e+00    5.99072933e-01
135      8.64595127e-10    0.00000000e+00    7.38796872e-01    1.78890479e+00    1.29996602e-02    1.64757803e+00    5.69152806e-01
136      8.66176167e-10    0.00000000e+00    8.74277933e-01    1.78924673e+00    1.26210360e-02    1.65284075e+00    5.39552570e-01
137      8.69338247e-10    0.00000000e+00    1.15503450e+00    1.78989503e+00    1.18136707e-02    1.66225415e+00    4.81251081e-01
138      8.72500327e-10    0.00000000e+00    1.41394446e+00    1.79049875e+00    1.09493768e-02    1.67023189e+00    4.25163555e-01
139      8.72898140e-10    0.00000000e+00    1.44014152e+00    1.79057200e+00    1.08484466e-02    1.67120042e+00    4.18738384e-01
140      8.73295954e-10    0.00000000e+00    1.46444706e+00    1.79064516e+00    1.07511243e-02    1.67218475e+00    4.12574891e-01
141      8.74091580e-10    0.00000000e+00    1.50604442e+00    1.79078957e+00    1.05548632e-02    1.67410170e+00    4.00507162e-01
142      8.74887206e-10    0.00000000e+00    1.53983931e+00    1.79093163e+00    1.03592576e-02    1.67595909e+00    3.88656210e-01
143      8.75682833e-10    0.00000000e+00    1.56786978e+00    1.79107108e+00    1.01589897e-02    1.67772779e+00    3.76820064e-01
144      8.77274086e-10    0.00000000e+00    1.61211983e+00    1.79134239e+00    9.74511193e-03    1.68098659e+00    3.52918879e-01
145      8.80456591e-10    0.00000000e+00    1.67170786e+00    1.79185670e+00    8.87968629e-03    1.68648588e+00    3.04314999e-01
146      8.83639097e-10    0.00000000e+00    1.70845301e+00    1.79233871e+00    8.03129852e-03    1.69105801e+00    2.56387704e-01
147      8.86821602e-10    0.00000000e+00    1.73237665e+00    1.79279529e+00    7.28891638e-03    1.69535354e+00    2.11939427e-01
148      8.90004108e-10    0.00000000e+00    1.74869617e+00    1.79323036e+00    6.69446096e-03    1.69978678e+00    1.72514266e-01
149      8.93186613e-10    0.00000000e+00    1.76039622e+00    1.79364561e+00    6.25384820e-03    1.70457305e+00    1.38776706e-01
